
T405C 000:099 SEGGER J-Link V6.12c Log File (0001ms, 0021ms total)
T405C 000:099 DLL Compiled: Dec 16 2016 17:24:18 (0001ms, 0021ms total)
T405C 000:099 Logging started @ 2023-03-24 18:09 (0001ms, 0021ms total)
T405C 000:100 JLINK_SetWarnOutHandler(...) (0000ms, 0021ms total)
T405C 000:100 JLINK_OpenEx(...)
Firmware: J-Link ARM-OB STM32 compiled Aug 22 2012 19:52:04
Hardware: V7.00
S/N: 20090929
Feature(s): RDI,FlashDL,FlashBP,JFlash,GDBFullWEBSRV Webserver running on local port 19080 (0013ms, 0034ms total)
T405C 000:100   returns O.K. (0013ms, 0034ms total)
T405C 000:113 JLINK_SetErrorOutHandler(...) (0000ms, 0034ms total)
T405C 000:113 JLINK_ExecCommand("ProjectFile = "C:\Users\ywzsu\Desktop\folder\mynrf52\examples\ble_peripheral\ble_app_hids_mouse\pca10040\s132\arm5_no_packs\JLinkSettings.ini"", ...). D:\software\JLink_V612c\JLinkDevices.xml evaluated successfully.  returns 0x00 (0057ms, 0091ms total)
T405C 000:173 JLINK_ExecCommand("Device = nRF52832_xxAA", ...). Device "NRF52832_XXAA" selected.  returns 0x00 (0003ms, 0094ms total)
T405C 000:176 JLINK_ExecCommand("DisableConnectionTimeout", ...).   returns 0x01 (0000ms, 0094ms total)
T405C 000:176 JLINK_GetHardwareVersion()  returns 0x11170 (0000ms, 0094ms total)
T405C 000:176 JLINK_GetDLLVersion()  returns 61203 (0000ms, 0094ms total)
T405C 000:176 JLINK_GetFirmwareString(...) (0000ms, 0094ms total)
T405C 000:184 JLINK_GetDLLVersion()  returns 61203 (0000ms, 0094ms total)
T405C 000:184 JLINK_GetCompileDateTime() (0000ms, 0094ms total)
T405C 000:188 JLINK_GetFirmwareString(...) (0000ms, 0094ms total)
T405C 000:190 JLINK_GetHardwareVersion()  returns 0x11170 (0000ms, 0094ms total)
T405C 000:201 JLINK_TIF_Select(JLINKARM_TIF_SWD)  returns 0x00 (0000ms, 0094ms total)
T405C 000:201 JLINK_SetSpeed(500) (0000ms, 0094ms total)
T405C 000:201 JLINK_GetId() >0x108 TIF>Found SWD-DP with ID 0x2BA01477 >0x0D TIF> >0x28 TIF> >0x0D TIF> >0x28 TIF> >0x0D TIF> >0x28 TIF> >0x0D TIF> >0x28 TIF> >0x0D TIF> >0x28 TIF> >0x0D TIF> >0x28 TIF> >0x35 TIF> >0x35 TIF> >0x0D TIF> >0x28 TIF> >0x35 TIF> >0x35 TIF> >0x108 TIF>Found SWD-DP with ID 0x2BA01477 >0x0D TIF> >0x28 TIF> >0x0D TIF> >0x28 TIF> >0x0D TIF> >0x28 TIF> >0x0D TIF> >0x28 TIF> >0x35 TIF> >0x0D TIF> >0x28 TIF> >0x0D TIF> >0x28 TIF> >0x35 TIF> >0x35 TIF> >0x35 TIF>
AP-IDR: 0x24770011, Type: AHB-APAHB-AP ROM: 0xE00FF000 (Base addr. of first ROM table) >0x0D TIF> >0x28 TIF> >0x0D TIF> >0x28 TIF> >0x0D TIF> >0x28 TIF> >0x35 TIF> >0x35 TIF> >0x0D TIF> >0x28 TIF> >0x35 TIF> >0x35 TIF>Found Cortex-M4 r0p1, Little endian. -- CPU_ReadMem(4 bytes @ 0xE000EDF0) -- CPU_ReadMem(4 bytes @ 0xE0002000)FPUnit: 6 code (BP) slots and 2 literal slots -- CPU_ReadMem(4 bytes @ 0xE000EDFC) -- CPU_ReadMem(4 bytes @ 0xE0001000) -- CPU_WriteMem(4 bytes @ 0xE0001000)
 -- CPU_ReadMem(4 bytes @ 0xE000ED88) -- CPU_WriteMem(4 bytes @ 0xE000ED88) -- CPU_ReadMem(4 bytes @ 0xE000ED88) -- CPU_WriteMem(4 bytes @ 0xE000ED88)CoreSight components:ROMTbl 0 @ E00FF000 -- CPU_ReadMem(16 bytes @ 0xE00FF000) -- CPU_ReadMem(16 bytes @ 0xE000EFF0) -- CPU_ReadMem(16 bytes @ 0xE000EFE0)ROMTbl 0 [0]: FFF0F000, CID: B105E00D, PID: 000BB00C SCS -- CPU_ReadMem(16 bytes @ 0xE0001FF0) -- CPU_ReadMem(16 bytes @ 0xE0001FE0)ROMTbl 0 [1]: FFF02000, CID: B105E00D, PID: 003BB002 DWT
 -- CPU_ReadMem(16 bytes @ 0xE0002FF0) -- CPU_ReadMem(16 bytes @ 0xE0002FE0)ROMTbl 0 [2]: FFF03000, CID: B105E00D, PID: 002BB003 FPB -- CPU_ReadMem(16 bytes @ 0xE0000FF0) -- CPU_ReadMem(16 bytes @ 0xE0000FE0)ROMTbl 0 [3]: FFF01000, CID: B105E00D, PID: 003BB001 ITM -- CPU_ReadMem(16 bytes @ 0xE00FF010) -- CPU_ReadMem(16 bytes @ 0xE0040FF0) -- CPU_ReadMem(16 bytes @ 0xE0040FE0)ROMTbl 0 [4]: FFF41000, CID: B105900D, PID: 000BB9A1 TPIU -- CPU_ReadMem(16 bytes @ 0xE0041FF0)
 -- CPU_ReadMem(16 bytes @ 0xE0041FE0)ROMTbl 0 [5]: FFF42000, CID: B105900D, PID: 000BB925 ETM >0x35 TIF>  returns 0x2BA01477 (0094ms, 0188ms total)
T405C 000:295 JLINK_GetDLLVersion()  returns 61203 (0000ms, 0188ms total)
T405C 000:295 JLINK_CORE_GetFound()  returns 0xE0000FF (0000ms, 0188ms total)
T405C 000:295 JLINK_GetDebugInfo(0x100) -- Value=0xE00FF000  returns 0x00 (0000ms, 0188ms total)
T405C 000:298 JLINK_GetDebugInfo(0x100) -- Value=0xE00FF000  returns 0x00 (0000ms, 0188ms total)
T405C 000:298 JLINK_GetDebugInfo(0x101) -- Value=0xE0041000  returns 0x00 (0000ms, 0188ms total)
T405C 000:298 JLINK_GetDebugInfo(0x102) -- Value=0x00000000  returns 0x00 (0000ms, 0188ms total)
T405C 000:298 JLINK_GetDebugInfo(0x103) -- Value=0xE0040000  returns 0x00 (0000ms, 0188ms total)
T405C 000:298 JLINK_GetDebugInfo(0x104) -- Value=0xE0000000  returns 0x00 (0000ms, 0188ms total)
T405C 000:298 JLINK_GetDebugInfo(0x105) -- Value=0xE0001000  returns 0x00 (0000ms, 0188ms total)
T405C 000:298 JLINK_GetDebugInfo(0x106) -- Value=0xE0002000  returns 0x00 (0000ms, 0188ms total)
T405C 000:298 JLINK_GetDebugInfo(0x107) -- Value=0xE000E000  returns 0x00 (0000ms, 0188ms total)
T405C 000:298 JLINK_GetDebugInfo(0x10C) -- Value=0xE000EDF0  returns 0x00 (0000ms, 0188ms total)
T405C 000:298 JLINK_ReadMemU32(0xE000EF40, 0x0001 Items, ...) -- CPU is running -- CPU_ReadMem(4 bytes @ 0xE000EF40) - Data: 21 00 11 10  returns 0x01 (0001ms, 0189ms total)
T405C 000:299 JLINK_ReadMemU32(0xE000EF44, 0x0001 Items, ...) -- CPU is running -- CPU_ReadMem(4 bytes @ 0xE000EF44) - Data: 11 00 00 11  returns 0x01 (0002ms, 0191ms total)
T405C 000:301 JLINK_ReadMemU32(0xE000ED00, 0x0001 Items, ...) -- CPU is running -- CPU_ReadMem(4 bytes @ 0xE000ED00) - Data: 41 C2 0F 41  returns 0x01 (0001ms, 0192ms total)
T405C 000:302 JLINK_SetResetType(JLINKARM_CM3_RESET_TYPE_NORMAL)  returns JLINKARM_CM3_RESET_TYPE_NORMAL (0000ms, 0192ms total)
T405C 000:302 JLINK_Reset() -- CPU is running -- CPU_WriteMem(4 bytes @ 0xE000EDF0) -- CPU is running -- CPU_WriteMem(4 bytes @ 0xE000EDFC) >0x35 TIF> -- CPU is running -- CPU_WriteMem(4 bytes @ 0xE000ED0C) -- CPU is running -- CPU_ReadMem(4 bytes @ 0xE000EDF0) -- CPU is running -- CPU_ReadMem(4 bytes @ 0xE000EDF0) -- CPU is running -- CPU_WriteMem(4 bytes @ 0xE000EDF0) -- CPU is running -- CPU_WriteMem(4 bytes @ 0xE000EDFC) -- CPU is running -- CPU_ReadMem(4 bytes @ 0xE000EDF0)
 -- CPU_WriteMem(4 bytes @ 0xE0002000) -- CPU_ReadMem(4 bytes @ 0xE000EDFC) -- CPU_ReadMem(4 bytes @ 0xE0001000) (0034ms, 0226ms total)
T405C 000:336 JLINK_Halt()  returns 0x00 (0000ms, 0226ms total)
T405C 000:336 JLINK_IsHalted()  returns TRUE (0000ms, 0226ms total)
T405C 000:336 JLINK_ReadMemU32(0xE000EDF0, 0x0001 Items, ...) -- CPU_ReadMem(4 bytes @ 0xE000EDF0) - Data: 03 00 03 00  returns 0x01 (0001ms, 0227ms total)
T405C 000:337 JLINK_WriteU32(0xE000EDF0, 0xA05F0003) -- CPU_WriteMem(4 bytes @ 0xE000EDF0)  returns 0x00 (0001ms, 0228ms total)
T405C 000:338 JLINK_WriteU32(0xE000EDFC, 0x01000000) -- CPU_WriteMem(4 bytes @ 0xE000EDFC)  returns 0x00 (0002ms, 0230ms total)
T405C 000:352 JLINK_GetHWStatus(...)  returns 0x00 (0000ms, 0230ms total)
T405C 000:361 JLINK_GetNumBPUnits(Type = 0xFFFFFF00)  returns 0x06 (0000ms, 0230ms total)
T405C 000:361 JLINK_GetNumBPUnits(Type = 0xF0)  returns 0x2000 (0000ms, 0230ms total)
T405C 000:361 JLINK_GetNumWPUnits()  returns 0x04 (0001ms, 0231ms total)
T405C 000:369 JLINK_GetSpeed()  returns 0x1F4 (0000ms, 0231ms total)
T405C 000:373 JLINK_ReadMemU32(0xE000E004, 0x0001 Items, ...) -- CPU_ReadMem(4 bytes @ 0xE000E004) - Data: 01 00 00 00  returns 0x01 (0002ms, 0233ms total)
T405C 000:375 JLINK_ReadMemU32(0xE000E004, 0x0001 Items, ...) -- CPU_ReadMem(4 bytes @ 0xE000E004) - Data: 01 00 00 00  returns 0x01 (0001ms, 0234ms total)
T405C 000:376 JLINK_WriteMem(0xE0001000, 0x001C Bytes, ...) - Data: 01 00 00 00 00 00 00 00 00 00 00 00 00 00 00 00 ... -- CPU_WriteMem(28 bytes @ 0xE0001000)  returns 0x1C (0002ms, 0236ms total)
T405C 000:378 JLINK_ReadMem (0xE0001000, 0x001C Bytes, ...) -- CPU_ReadMem(28 bytes @ 0xE0001000) - Data: 01 00 00 40 00 00 00 00 00 00 00 00 00 00 00 00 ...  returns 0x00 (0003ms, 0239ms total)
T405C 000:381 JLINK_Halt()  returns 0x00 (0000ms, 0239ms total)
T405C 000:381 JLINK_IsHalted()  returns TRUE (0000ms, 0239ms total)
T405C 000:384 JLINK_WriteMem(0x20000000, 0x05B8 Bytes, ...) - Data: 00 BE 0A E0 0D 78 2D 06 68 40 08 24 40 00 00 D3 ... -- CPU_WriteMem(1464 bytes @ 0x20000000)  returns 0x5B8 (0062ms, 0301ms total)
T405C 000:446 JLINK_WriteReg(R0, 0x00000000)  returns 0x00 (0000ms, 0301ms total)
T405C 000:446 JLINK_WriteReg(R1, 0x03D09000)  returns 0x00 (0000ms, 0301ms total)
T405C 000:446 JLINK_WriteReg(R2, 0x00000001)  returns 0x00 (0000ms, 0301ms total)
T405C 000:446 JLINK_WriteReg(R3, 0x00000000)  returns 0x00 (0000ms, 0301ms total)
T405C 000:446 JLINK_WriteReg(R4, 0x00000000)  returns 0x00 (0000ms, 0301ms total)
T405C 000:446 JLINK_WriteReg(R5, 0x00000000)  returns 0x00 (0000ms, 0301ms total)
T405C 000:446 JLINK_WriteReg(R6, 0x00000000)  returns 0x00 (0000ms, 0301ms total)
T405C 000:446 JLINK_WriteReg(R7, 0x00000000)  returns 0x00 (0000ms, 0301ms total)
T405C 000:447 JLINK_WriteReg(R8, 0x00000000)  returns 0x00 (0000ms, 0302ms total)
T405C 000:447 JLINK_WriteReg(R9, 0x200005B4)  returns 0x00 (0000ms, 0302ms total)
T405C 000:447 JLINK_WriteReg(R10, 0x00000000)  returns 0x00 (0000ms, 0302ms total)
T405C 000:447 JLINK_WriteReg(R11, 0x00000000)  returns 0x00 (0000ms, 0302ms total)
T405C 000:447 JLINK_WriteReg(R12, 0x00000000)  returns 0x00 (0000ms, 0302ms total)
T405C 000:447 JLINK_WriteReg(R13 (SP), 0x20002000)  returns 0x00 (0000ms, 0302ms total)
T405C 000:447 JLINK_WriteReg(R14, 0x20000001)  returns 0x00 (0000ms, 0302ms total)
T405C 000:447 JLINK_WriteReg(R15 (PC), 0x20000020)  returns 0x00 (0000ms, 0302ms total)
T405C 000:447 JLINK_WriteReg(XPSR, 0x01000000)  returns 0x00 (0000ms, 0302ms total)
T405C 000:447 JLINK_WriteReg(MSP, 0x20002000)  returns 0x00 (0000ms, 0302ms total)
T405C 000:447 JLINK_WriteReg(PSP, 0x20002000)  returns 0x00 (0000ms, 0302ms total)
T405C 000:447 JLINK_WriteReg(CFBP, 0x00000000)  returns 0x00 (0000ms, 0302ms total)
T405C 000:447 JLINK_SetBPEx(Addr = 0x20000000, Type = 0xFFFFFFF2) -- CPU_ReadMem(2 bytes @ 0x20000000)  returns 0x00000001 (0001ms, 0303ms total)
T405C 000:448 JLINK_Go() -- CPU_WriteMem(2 bytes @ 0x20000000) -- CPU_ReadMem(4 bytes @ 0xE0001000) -- CPU_WriteMem(4 bytes @ 0xE0002008) -- CPU_WriteMem(4 bytes @ 0xE000200C) -- CPU_WriteMem(4 bytes @ 0xE0002010) -- CPU_WriteMem(4 bytes @ 0xE0002014) -- CPU_WriteMem(4 bytes @ 0xE0002018) -- CPU_WriteMem(4 bytes @ 0xE000201C) -- CPU_WriteMem(4 bytes @ 0xE0001004) (0016ms, 0319ms total)
T405C 000:464 JLINK_IsHalted() -- CPU_ReadMem(2 bytes @ 0x20000000)  returns TRUE (0012ms, 0331ms total)
T405C 000:476 JLINK_ReadReg(R15 (PC))  returns 0x20000000 (0000ms, 0319ms total)
T405C 000:476 JLINK_ClrBPEx(BPHandle = 0x00000001)  returns 0x00 (0000ms, 0319ms total)
T405C 000:476 JLINK_ReadReg(R0)  returns 0x00000000 (0000ms, 0319ms total)
T405C 000:476 JLINK_WriteReg(R0, 0x00026000)  returns 0x00 (0000ms, 0319ms total)
T405C 000:476 JLINK_WriteReg(R1, 0x00001000)  returns 0x00 (0000ms, 0319ms total)
T405C 000:476 JLINK_WriteReg(R2, 0x000000FF)  returns 0x00 (0000ms, 0319ms total)
T405C 000:476 JLINK_WriteReg(R3, 0x00000000)  returns 0x00 (0000ms, 0319ms total)
T405C 000:476 JLINK_WriteReg(R4, 0x00000000)  returns 0x00 (0000ms, 0319ms total)
T405C 000:476 JLINK_WriteReg(R5, 0x00000000)  returns 0x00 (0000ms, 0319ms total)
T405C 000:476 JLINK_WriteReg(R6, 0x00000000)  returns 0x00 (0000ms, 0319ms total)
T405C 000:476 JLINK_WriteReg(R7, 0x00000000)  returns 0x00 (0000ms, 0319ms total)
T405C 000:476 JLINK_WriteReg(R8, 0x00000000)  returns 0x00 (0000ms, 0319ms total)
T405C 000:476 JLINK_WriteReg(R9, 0x200005B4)  returns 0x00 (0000ms, 0319ms total)
T405C 000:476 JLINK_WriteReg(R10, 0x00000000)  returns 0x00 (0000ms, 0319ms total)
T405C 000:476 JLINK_WriteReg(R11, 0x00000000)  returns 0x00 (0000ms, 0319ms total)
T405C 000:476 JLINK_WriteReg(R12, 0x00000000)  returns 0x00 (0000ms, 0319ms total)
T405C 000:476 JLINK_WriteReg(R13 (SP), 0x20002000)  returns 0x00 (0000ms, 0319ms total)
T405C 000:476 JLINK_WriteReg(R14, 0x20000001)  returns 0x00 (0000ms, 0319ms total)
T405C 000:476 JLINK_WriteReg(R15 (PC), 0x20000288)  returns 0x00 (0000ms, 0319ms total)
T405C 000:476 JLINK_WriteReg(XPSR, 0x01000000)  returns 0x00 (0000ms, 0319ms total)
T405C 000:476 JLINK_WriteReg(MSP, 0x20002000)  returns 0x00 (0000ms, 0319ms total)
T405C 000:476 JLINK_WriteReg(PSP, 0x20002000)  returns 0x00 (0000ms, 0319ms total)
T405C 000:476 JLINK_WriteReg(CFBP, 0x00000000)  returns 0x00 (0000ms, 0319ms total)
T405C 000:476 JLINK_SetBPEx(Addr = 0x20000000, Type = 0xFFFFFFF2)  returns 0x00000002 (0000ms, 0319ms total)
T405C 000:476 JLINK_Go() -- CPU_ReadMem(4 bytes @ 0xE0001000) (0008ms, 0327ms total)
T405C 000:484 JLINK_IsHalted() -- CPU_ReadMem(2 bytes @ 0x20000000)  returns TRUE (0012ms, 0339ms total)
T405C 000:496 JLINK_ReadReg(R15 (PC))  returns 0x20000000 (0000ms, 0327ms total)
T405C 000:497 JLINK_ClrBPEx(BPHandle = 0x00000002)  returns 0x00 (0000ms, 0328ms total)
T405C 000:497 JLINK_ReadReg(R0)  returns 0x00000001 (0000ms, 0328ms total)
T405C 000:497 JLINK_WriteReg(R0, 0x00026000)  returns 0x00 (0000ms, 0328ms total)
T405C 000:497 JLINK_WriteReg(R1, 0x00001000)  returns 0x00 (0000ms, 0328ms total)
T405C 000:497 JLINK_WriteReg(R2, 0x000000FF)  returns 0x00 (0000ms, 0328ms total)
T405C 000:497 JLINK_WriteReg(R3, 0x00000000)  returns 0x00 (0000ms, 0328ms total)
T405C 000:497 JLINK_WriteReg(R4, 0x00000000)  returns 0x00 (0000ms, 0328ms total)
T405C 000:497 JLINK_WriteReg(R5, 0x00000000)  returns 0x00 (0000ms, 0328ms total)
T405C 000:497 JLINK_WriteReg(R6, 0x00000000)  returns 0x00 (0000ms, 0328ms total)
T405C 000:497 JLINK_WriteReg(R7, 0x00000000)  returns 0x00 (0000ms, 0328ms total)
T405C 000:497 JLINK_WriteReg(R8, 0x00000000)  returns 0x00 (0000ms, 0328ms total)
T405C 000:497 JLINK_WriteReg(R9, 0x200005B4)  returns 0x00 (0000ms, 0328ms total)
T405C 000:497 JLINK_WriteReg(R10, 0x00000000)  returns 0x00 (0000ms, 0328ms total)
T405C 000:497 JLINK_WriteReg(R11, 0x00000000)  returns 0x00 (0000ms, 0328ms total)
T405C 000:497 JLINK_WriteReg(R12, 0x00000000)  returns 0x00 (0000ms, 0328ms total)
T405C 000:497 JLINK_WriteReg(R13 (SP), 0x20002000)  returns 0x00 (0000ms, 0328ms total)
T405C 000:497 JLINK_WriteReg(R14, 0x20000001)  returns 0x00 (0000ms, 0328ms total)
T405C 000:497 JLINK_WriteReg(R15 (PC), 0x200000D4)  returns 0x00 (0000ms, 0328ms total)
T405C 000:497 JLINK_WriteReg(XPSR, 0x01000000)  returns 0x00 (0000ms, 0328ms total)
T405C 000:498 JLINK_WriteReg(MSP, 0x20002000)  returns 0x00 (0000ms, 0329ms total)
T405C 000:498 JLINK_WriteReg(PSP, 0x20002000)  returns 0x00 (0000ms, 0329ms total)
T405C 000:498 JLINK_WriteReg(CFBP, 0x00000000)  returns 0x00 (0000ms, 0329ms total)
T405C 000:498 JLINK_SetBPEx(Addr = 0x20000000, Type = 0xFFFFFFF2)  returns 0x00000003 (0000ms, 0329ms total)
T405C 000:498 JLINK_Go() -- CPU_ReadMem(4 bytes @ 0xE0001000) (0005ms, 0334ms total)
T405C 000:504 JLINK_IsHalted()  returns FALSE (0001ms, 0335ms total)
T405C 000:546 JLINK_IsHalted() -- CPU_ReadMem(2 bytes @ 0x20000000)  returns TRUE (0013ms, 0347ms total)
T405C 000:559 JLINK_ReadReg(R15 (PC))  returns 0x20000000 (0000ms, 0334ms total)
T405C 000:559 JLINK_ClrBPEx(BPHandle = 0x00000003)  returns 0x00 (0000ms, 0334ms total)
T405C 000:559 JLINK_ReadReg(R0)  returns 0x00000000 (0000ms, 0334ms total)
T405C 000:560 JLINK_WriteReg(R0, 0x00027000)  returns 0x00 (0000ms, 0334ms total)
T405C 000:560 JLINK_WriteReg(R1, 0x00001000)  returns 0x00 (0000ms, 0334ms total)
T405C 000:560 JLINK_WriteReg(R2, 0x000000FF)  returns 0x00 (0000ms, 0334ms total)
T405C 000:560 JLINK_WriteReg(R3, 0x00000000)  returns 0x00 (0000ms, 0334ms total)
T405C 000:560 JLINK_WriteReg(R4, 0x00000000)  returns 0x00 (0000ms, 0334ms total)
T405C 000:560 JLINK_WriteReg(R5, 0x00000000)  returns 0x00 (0000ms, 0334ms total)
T405C 000:560 JLINK_WriteReg(R6, 0x00000000)  returns 0x00 (0000ms, 0334ms total)
T405C 000:560 JLINK_WriteReg(R7, 0x00000000)  returns 0x00 (0000ms, 0334ms total)
T405C 000:560 JLINK_WriteReg(R8, 0x00000000)  returns 0x00 (0000ms, 0334ms total)
T405C 000:560 JLINK_WriteReg(R9, 0x200005B4)  returns 0x00 (0000ms, 0334ms total)
T405C 000:560 JLINK_WriteReg(R10, 0x00000000)  returns 0x00 (0000ms, 0334ms total)
T405C 000:560 JLINK_WriteReg(R11, 0x00000000)  returns 0x00 (0000ms, 0334ms total)
T405C 000:560 JLINK_WriteReg(R12, 0x00000000)  returns 0x00 (0000ms, 0334ms total)
T405C 000:560 JLINK_WriteReg(R13 (SP), 0x20002000)  returns 0x00 (0000ms, 0334ms total)
T405C 000:560 JLINK_WriteReg(R14, 0x20000001)  returns 0x00 (0000ms, 0334ms total)
T405C 000:560 JLINK_WriteReg(R15 (PC), 0x20000288)  returns 0x00 (0000ms, 0334ms total)
T405C 000:561 JLINK_WriteReg(XPSR, 0x01000000)  returns 0x00 (0000ms, 0335ms total)
T405C 000:561 JLINK_WriteReg(MSP, 0x20002000)  returns 0x00 (0000ms, 0335ms total)
T405C 000:561 JLINK_WriteReg(PSP, 0x20002000)  returns 0x00 (0000ms, 0335ms total)
T405C 000:561 JLINK_WriteReg(CFBP, 0x00000000)  returns 0x00 (0000ms, 0335ms total)
T405C 000:561 JLINK_SetBPEx(Addr = 0x20000000, Type = 0xFFFFFFF2)  returns 0x00000004 (0000ms, 0335ms total)
T405C 000:561 JLINK_Go() -- CPU_ReadMem(4 bytes @ 0xE0001000) (0006ms, 0341ms total)
T405C 000:568 JLINK_IsHalted() -- CPU_ReadMem(2 bytes @ 0x20000000)  returns TRUE (0012ms, 0353ms total)
T405C 000:580 JLINK_ReadReg(R15 (PC))  returns 0x20000000 (0000ms, 0341ms total)
T405C 000:580 JLINK_ClrBPEx(BPHandle = 0x00000004)  returns 0x00 (0000ms, 0341ms total)
T405C 000:580 JLINK_ReadReg(R0)  returns 0x00000001 (0000ms, 0341ms total)
T405C 000:580 JLINK_WriteReg(R0, 0x00027000)  returns 0x00 (0000ms, 0341ms total)
T405C 000:580 JLINK_WriteReg(R1, 0x00001000)  returns 0x00 (0000ms, 0341ms total)
T405C 000:580 JLINK_WriteReg(R2, 0x000000FF)  returns 0x00 (0000ms, 0341ms total)
T405C 000:580 JLINK_WriteReg(R3, 0x00000000)  returns 0x00 (0000ms, 0341ms total)
T405C 000:580 JLINK_WriteReg(R4, 0x00000000)  returns 0x00 (0000ms, 0341ms total)
T405C 000:580 JLINK_WriteReg(R5, 0x00000000)  returns 0x00 (0000ms, 0341ms total)
T405C 000:580 JLINK_WriteReg(R6, 0x00000000)  returns 0x00 (0000ms, 0341ms total)
T405C 000:580 JLINK_WriteReg(R7, 0x00000000)  returns 0x00 (0001ms, 0342ms total)
T405C 000:581 JLINK_WriteReg(R8, 0x00000000)  returns 0x00 (0000ms, 0342ms total)
T405C 000:581 JLINK_WriteReg(R9, 0x200005B4)  returns 0x00 (0000ms, 0342ms total)
T405C 000:581 JLINK_WriteReg(R10, 0x00000000)  returns 0x00 (0000ms, 0342ms total)
T405C 000:581 JLINK_WriteReg(R11, 0x00000000)  returns 0x00 (0000ms, 0342ms total)
T405C 000:581 JLINK_WriteReg(R12, 0x00000000)  returns 0x00 (0000ms, 0342ms total)
T405C 000:581 JLINK_WriteReg(R13 (SP), 0x20002000)  returns 0x00 (0000ms, 0342ms total)
T405C 000:581 JLINK_WriteReg(R14, 0x20000001)  returns 0x00 (0000ms, 0342ms total)
T405C 000:581 JLINK_WriteReg(R15 (PC), 0x200000D4)  returns 0x00 (0000ms, 0342ms total)
T405C 000:581 JLINK_WriteReg(XPSR, 0x01000000)  returns 0x00 (0000ms, 0342ms total)
T405C 000:581 JLINK_WriteReg(MSP, 0x20002000)  returns 0x00 (0000ms, 0342ms total)
T405C 000:581 JLINK_WriteReg(PSP, 0x20002000)  returns 0x00 (0000ms, 0342ms total)
T405C 000:581 JLINK_WriteReg(CFBP, 0x00000000)  returns 0x00 (0000ms, 0342ms total)
T405C 000:581 JLINK_SetBPEx(Addr = 0x20000000, Type = 0xFFFFFFF2)  returns 0x00000005 (0000ms, 0342ms total)
T405C 000:581 JLINK_Go() -- CPU_ReadMem(4 bytes @ 0xE0001000) (0007ms, 0349ms total)
T405C 000:588 JLINK_IsHalted()  returns FALSE (0002ms, 0351ms total)
T405C 000:594 JLINK_IsHalted() -- CPU_ReadMem(2 bytes @ 0x20000000)  returns TRUE (0013ms, 0362ms total)
T405C 000:607 JLINK_ReadReg(R15 (PC))  returns 0x20000000 (0000ms, 0349ms total)
T405C 000:607 JLINK_ClrBPEx(BPHandle = 0x00000005)  returns 0x00 (0000ms, 0349ms total)
T405C 000:607 JLINK_ReadReg(R0)  returns 0x00000000 (0000ms, 0349ms total)
T405C 000:608 JLINK_WriteReg(R0, 0x00028000)  returns 0x00 (0000ms, 0349ms total)
T405C 000:608 JLINK_WriteReg(R1, 0x00001000)  returns 0x00 (0000ms, 0349ms total)
T405C 000:608 JLINK_WriteReg(R2, 0x000000FF)  returns 0x00 (0000ms, 0349ms total)
T405C 000:608 JLINK_WriteReg(R3, 0x00000000)  returns 0x00 (0000ms, 0349ms total)
T405C 000:608 JLINK_WriteReg(R4, 0x00000000)  returns 0x00 (0000ms, 0349ms total)
T405C 000:608 JLINK_WriteReg(R5, 0x00000000)  returns 0x00 (0000ms, 0349ms total)
T405C 000:608 JLINK_WriteReg(R6, 0x00000000)  returns 0x00 (0000ms, 0349ms total)
T405C 000:608 JLINK_WriteReg(R7, 0x00000000)  returns 0x00 (0000ms, 0349ms total)
T405C 000:608 JLINK_WriteReg(R8, 0x00000000)  returns 0x00 (0000ms, 0349ms total)
T405C 000:608 JLINK_WriteReg(R9, 0x200005B4)  returns 0x00 (0000ms, 0349ms total)
T405C 000:608 JLINK_WriteReg(R10, 0x00000000)  returns 0x00 (0000ms, 0349ms total)
T405C 000:608 JLINK_WriteReg(R11, 0x00000000)  returns 0x00 (0000ms, 0349ms total)
T405C 000:608 JLINK_WriteReg(R12, 0x00000000)  returns 0x00 (0000ms, 0349ms total)
T405C 000:608 JLINK_WriteReg(R13 (SP), 0x20002000)  returns 0x00 (0000ms, 0349ms total)
T405C 000:608 JLINK_WriteReg(R14, 0x20000001)  returns 0x00 (0000ms, 0349ms total)
T405C 000:608 JLINK_WriteReg(R15 (PC), 0x20000288)  returns 0x00 (0000ms, 0349ms total)
T405C 000:608 JLINK_WriteReg(XPSR, 0x01000000)  returns 0x00 (0001ms, 0350ms total)
T405C 000:609 JLINK_WriteReg(MSP, 0x20002000)  returns 0x00 (0000ms, 0350ms total)
T405C 000:609 JLINK_WriteReg(PSP, 0x20002000)  returns 0x00 (0000ms, 0350ms total)
T405C 000:609 JLINK_WriteReg(CFBP, 0x00000000)  returns 0x00 (0000ms, 0350ms total)
T405C 000:609 JLINK_SetBPEx(Addr = 0x20000000, Type = 0xFFFFFFF2)  returns 0x00000006 (0000ms, 0350ms total)
T405C 000:609 JLINK_Go() -- CPU_ReadMem(4 bytes @ 0xE0001000) (0006ms, 0356ms total)
T405C 000:616 JLINK_IsHalted() -- CPU_ReadMem(2 bytes @ 0x20000000)  returns TRUE (0012ms, 0369ms total)
T405C 000:628 JLINK_ReadReg(R15 (PC))  returns 0x20000000 (0000ms, 0357ms total)
T405C 000:628 JLINK_ClrBPEx(BPHandle = 0x00000006)  returns 0x00 (0000ms, 0357ms total)
T405C 000:628 JLINK_ReadReg(R0)  returns 0x00000001 (0000ms, 0357ms total)
T405C 000:628 JLINK_WriteReg(R0, 0x00028000)  returns 0x00 (0000ms, 0357ms total)
T405C 000:628 JLINK_WriteReg(R1, 0x00001000)  returns 0x00 (0000ms, 0357ms total)
T405C 000:628 JLINK_WriteReg(R2, 0x000000FF)  returns 0x00 (0000ms, 0357ms total)
T405C 000:628 JLINK_WriteReg(R3, 0x00000000)  returns 0x00 (0000ms, 0357ms total)
T405C 000:628 JLINK_WriteReg(R4, 0x00000000)  returns 0x00 (0000ms, 0357ms total)
T405C 000:628 JLINK_WriteReg(R5, 0x00000000)  returns 0x00 (0000ms, 0357ms total)
T405C 000:628 JLINK_WriteReg(R6, 0x00000000)  returns 0x00 (0000ms, 0357ms total)
T405C 000:628 JLINK_WriteReg(R7, 0x00000000)  returns 0x00 (0000ms, 0357ms total)
T405C 000:628 JLINK_WriteReg(R8, 0x00000000)  returns 0x00 (0000ms, 0357ms total)
T405C 000:628 JLINK_WriteReg(R9, 0x200005B4)  returns 0x00 (0000ms, 0357ms total)
T405C 000:628 JLINK_WriteReg(R10, 0x00000000)  returns 0x00 (0000ms, 0357ms total)
T405C 000:628 JLINK_WriteReg(R11, 0x00000000)  returns 0x00 (0000ms, 0357ms total)
T405C 000:628 JLINK_WriteReg(R12, 0x00000000)  returns 0x00 (0000ms, 0357ms total)
T405C 000:628 JLINK_WriteReg(R13 (SP), 0x20002000)  returns 0x00 (0000ms, 0357ms total)
T405C 000:628 JLINK_WriteReg(R14, 0x20000001)  returns 0x00 (0000ms, 0357ms total)
T405C 000:628 JLINK_WriteReg(R15 (PC), 0x200000D4)  returns 0x00 (0000ms, 0357ms total)
T405C 000:628 JLINK_WriteReg(XPSR, 0x01000000)  returns 0x00 (0000ms, 0357ms total)
T405C 000:628 JLINK_WriteReg(MSP, 0x20002000)  returns 0x00 (0000ms, 0357ms total)
T405C 000:628 JLINK_WriteReg(PSP, 0x20002000)  returns 0x00 (0000ms, 0357ms total)
T405C 000:628 JLINK_WriteReg(CFBP, 0x00000000)  returns 0x00 (0000ms, 0357ms total)
T405C 000:628 JLINK_SetBPEx(Addr = 0x20000000, Type = 0xFFFFFFF2)  returns 0x00000007 (0000ms, 0357ms total)
T405C 000:628 JLINK_Go() -- CPU_ReadMem(4 bytes @ 0xE0001000) (0007ms, 0364ms total)
T405C 000:635 JLINK_IsHalted()  returns FALSE (0001ms, 0365ms total)
T405C 000:643 JLINK_IsHalted() -- CPU_ReadMem(2 bytes @ 0x20000000)  returns TRUE (0011ms, 0375ms total)
T405C 000:654 JLINK_ReadReg(R15 (PC))  returns 0x20000000 (0000ms, 0364ms total)
T405C 000:654 JLINK_ClrBPEx(BPHandle = 0x00000007)  returns 0x00 (0000ms, 0364ms total)
T405C 000:654 JLINK_ReadReg(R0)  returns 0x00000000 (0000ms, 0364ms total)
T405C 000:655 JLINK_WriteReg(R0, 0x00029000)  returns 0x00 (0000ms, 0364ms total)
T405C 000:655 JLINK_WriteReg(R1, 0x00001000)  returns 0x00 (0000ms, 0364ms total)
T405C 000:655 JLINK_WriteReg(R2, 0x000000FF)  returns 0x00 (0000ms, 0364ms total)
T405C 000:655 JLINK_WriteReg(R3, 0x00000000)  returns 0x00 (0000ms, 0364ms total)
T405C 000:655 JLINK_WriteReg(R4, 0x00000000)  returns 0x00 (0000ms, 0364ms total)
T405C 000:655 JLINK_WriteReg(R5, 0x00000000)  returns 0x00 (0001ms, 0365ms total)
T405C 000:656 JLINK_WriteReg(R6, 0x00000000)  returns 0x00 (0000ms, 0365ms total)
T405C 000:656 JLINK_WriteReg(R7, 0x00000000)  returns 0x00 (0000ms, 0365ms total)
T405C 000:656 JLINK_WriteReg(R8, 0x00000000)  returns 0x00 (0000ms, 0365ms total)
T405C 000:656 JLINK_WriteReg(R9, 0x200005B4)  returns 0x00 (0000ms, 0365ms total)
T405C 000:656 JLINK_WriteReg(R10, 0x00000000)  returns 0x00 (0000ms, 0365ms total)
T405C 000:656 JLINK_WriteReg(R11, 0x00000000)  returns 0x00 (0000ms, 0365ms total)
T405C 000:656 JLINK_WriteReg(R12, 0x00000000)  returns 0x00 (0000ms, 0365ms total)
T405C 000:656 JLINK_WriteReg(R13 (SP), 0x20002000)  returns 0x00 (0000ms, 0365ms total)
T405C 000:656 JLINK_WriteReg(R14, 0x20000001)  returns 0x00 (0000ms, 0365ms total)
T405C 000:656 JLINK_WriteReg(R15 (PC), 0x20000288)  returns 0x00 (0000ms, 0365ms total)
T405C 000:656 JLINK_WriteReg(XPSR, 0x01000000)  returns 0x00 (0000ms, 0365ms total)
T405C 000:656 JLINK_WriteReg(MSP, 0x20002000)  returns 0x00 (0000ms, 0365ms total)
T405C 000:656 JLINK_WriteReg(PSP, 0x20002000)  returns 0x00 (0000ms, 0365ms total)
T405C 000:656 JLINK_WriteReg(CFBP, 0x00000000)  returns 0x00 (0000ms, 0365ms total)
T405C 000:656 JLINK_SetBPEx(Addr = 0x20000000, Type = 0xFFFFFFF2)  returns 0x00000008 (0000ms, 0365ms total)
T405C 000:656 JLINK_Go() -- CPU_ReadMem(4 bytes @ 0xE0001000) (0007ms, 0372ms total)
T405C 000:663 JLINK_IsHalted() -- CPU_ReadMem(2 bytes @ 0x20000000)  returns TRUE (0012ms, 0384ms total)
T405C 000:675 JLINK_ReadReg(R15 (PC))  returns 0x20000000 (0000ms, 0372ms total)
T405C 000:675 JLINK_ClrBPEx(BPHandle = 0x00000008)  returns 0x00 (0000ms, 0372ms total)
T405C 000:675 JLINK_ReadReg(R0)  returns 0x00000001 (0000ms, 0372ms total)
T405C 000:675 JLINK_WriteReg(R0, 0x00029000)  returns 0x00 (0001ms, 0373ms total)
T405C 000:676 JLINK_WriteReg(R1, 0x00001000)  returns 0x00 (0000ms, 0373ms total)
T405C 000:676 JLINK_WriteReg(R2, 0x000000FF)  returns 0x00 (0000ms, 0373ms total)
T405C 000:676 JLINK_WriteReg(R3, 0x00000000)  returns 0x00 (0000ms, 0373ms total)
T405C 000:676 JLINK_WriteReg(R4, 0x00000000)  returns 0x00 (0000ms, 0373ms total)
T405C 000:676 JLINK_WriteReg(R5, 0x00000000)  returns 0x00 (0000ms, 0373ms total)
T405C 000:676 JLINK_WriteReg(R6, 0x00000000)  returns 0x00 (0000ms, 0373ms total)
T405C 000:676 JLINK_WriteReg(R7, 0x00000000)  returns 0x00 (0000ms, 0373ms total)
T405C 000:676 JLINK_WriteReg(R8, 0x00000000)  returns 0x00 (0000ms, 0373ms total)
T405C 000:676 JLINK_WriteReg(R9, 0x200005B4)  returns 0x00 (0000ms, 0373ms total)
T405C 000:676 JLINK_WriteReg(R10, 0x00000000)  returns 0x00 (0000ms, 0373ms total)
T405C 000:676 JLINK_WriteReg(R11, 0x00000000)  returns 0x00 (0000ms, 0373ms total)
T405C 000:676 JLINK_WriteReg(R12, 0x00000000)  returns 0x00 (0000ms, 0373ms total)
T405C 000:676 JLINK_WriteReg(R13 (SP), 0x20002000)  returns 0x00 (0000ms, 0373ms total)
T405C 000:676 JLINK_WriteReg(R14, 0x20000001)  returns 0x00 (0000ms, 0373ms total)
T405C 000:676 JLINK_WriteReg(R15 (PC), 0x200000D4)  returns 0x00 (0000ms, 0373ms total)
T405C 000:676 JLINK_WriteReg(XPSR, 0x01000000)  returns 0x00 (0000ms, 0373ms total)
T405C 000:676 JLINK_WriteReg(MSP, 0x20002000)  returns 0x00 (0000ms, 0373ms total)
T405C 000:676 JLINK_WriteReg(PSP, 0x20002000)  returns 0x00 (0000ms, 0373ms total)
T405C 000:676 JLINK_WriteReg(CFBP, 0x00000000)  returns 0x00 (0000ms, 0373ms total)
T405C 000:676 JLINK_SetBPEx(Addr = 0x20000000, Type = 0xFFFFFFF2)  returns 0x00000009 (0000ms, 0373ms total)
T405C 000:676 JLINK_Go() -- CPU_ReadMem(4 bytes @ 0xE0001000) (0007ms, 0380ms total)
T405C 000:683 JLINK_IsHalted()  returns FALSE (0001ms, 0381ms total)
T405C 000:689 JLINK_IsHalted() -- CPU_ReadMem(2 bytes @ 0x20000000)  returns TRUE (0013ms, 0393ms total)
T405C 000:702 JLINK_ReadReg(R15 (PC))  returns 0x20000000 (0000ms, 0380ms total)
T405C 000:702 JLINK_ClrBPEx(BPHandle = 0x00000009)  returns 0x00 (0000ms, 0380ms total)
T405C 000:702 JLINK_ReadReg(R0)  returns 0x00000000 (0000ms, 0380ms total)
T405C 000:703 JLINK_WriteReg(R0, 0x0002A000)  returns 0x00 (0000ms, 0380ms total)
T405C 000:703 JLINK_WriteReg(R1, 0x00001000)  returns 0x00 (0000ms, 0380ms total)
T405C 000:703 JLINK_WriteReg(R2, 0x000000FF)  returns 0x00 (0000ms, 0380ms total)
T405C 000:703 JLINK_WriteReg(R3, 0x00000000)  returns 0x00 (0000ms, 0380ms total)
T405C 000:703 JLINK_WriteReg(R4, 0x00000000)  returns 0x00 (0000ms, 0380ms total)
T405C 000:703 JLINK_WriteReg(R5, 0x00000000)  returns 0x00 (0000ms, 0380ms total)
T405C 000:703 JLINK_WriteReg(R6, 0x00000000)  returns 0x00 (0000ms, 0380ms total)
T405C 000:703 JLINK_WriteReg(R7, 0x00000000)  returns 0x00 (0000ms, 0380ms total)
T405C 000:703 JLINK_WriteReg(R8, 0x00000000)  returns 0x00 (0000ms, 0380ms total)
T405C 000:703 JLINK_WriteReg(R9, 0x200005B4)  returns 0x00 (0000ms, 0380ms total)
T405C 000:703 JLINK_WriteReg(R10, 0x00000000)  returns 0x00 (0000ms, 0380ms total)
T405C 000:703 JLINK_WriteReg(R11, 0x00000000)  returns 0x00 (0000ms, 0380ms total)
T405C 000:703 JLINK_WriteReg(R12, 0x00000000)  returns 0x00 (0000ms, 0380ms total)
T405C 000:703 JLINK_WriteReg(R13 (SP), 0x20002000)  returns 0x00 (0000ms, 0380ms total)
T405C 000:703 JLINK_WriteReg(R14, 0x20000001)  returns 0x00 (0000ms, 0380ms total)
T405C 000:703 JLINK_WriteReg(R15 (PC), 0x20000288)  returns 0x00 (0000ms, 0380ms total)
T405C 000:703 JLINK_WriteReg(XPSR, 0x01000000)  returns 0x00 (0000ms, 0380ms total)
T405C 000:703 JLINK_WriteReg(MSP, 0x20002000)  returns 0x00 (0000ms, 0380ms total)
T405C 000:703 JLINK_WriteReg(PSP, 0x20002000)  returns 0x00 (0000ms, 0380ms total)
T405C 000:703 JLINK_WriteReg(CFBP, 0x00000000)  returns 0x00 (0000ms, 0380ms total)
T405C 000:703 JLINK_SetBPEx(Addr = 0x20000000, Type = 0xFFFFFFF2)  returns 0x0000000A (0000ms, 0380ms total)
T405C 000:704 JLINK_Go() -- CPU_ReadMem(4 bytes @ 0xE0001000) (0006ms, 0387ms total)
T405C 000:710 JLINK_IsHalted() -- CPU_ReadMem(2 bytes @ 0x20000000)  returns TRUE (0012ms, 0399ms total)
T405C 000:722 JLINK_ReadReg(R15 (PC))  returns 0x20000000 (0000ms, 0387ms total)
T405C 000:722 JLINK_ClrBPEx(BPHandle = 0x0000000A)  returns 0x00 (0000ms, 0387ms total)
T405C 000:722 JLINK_ReadReg(R0)  returns 0x00000001 (0000ms, 0387ms total)
T405C 000:722 JLINK_WriteReg(R0, 0x0002A000)  returns 0x00 (0000ms, 0387ms total)
T405C 000:722 JLINK_WriteReg(R1, 0x00001000)  returns 0x00 (0000ms, 0387ms total)
T405C 000:722 JLINK_WriteReg(R2, 0x000000FF)  returns 0x00 (0000ms, 0387ms total)
T405C 000:722 JLINK_WriteReg(R3, 0x00000000)  returns 0x00 (0000ms, 0387ms total)
T405C 000:722 JLINK_WriteReg(R4, 0x00000000)  returns 0x00 (0000ms, 0387ms total)
T405C 000:722 JLINK_WriteReg(R5, 0x00000000)  returns 0x00 (0001ms, 0388ms total)
T405C 000:723 JLINK_WriteReg(R6, 0x00000000)  returns 0x00 (0000ms, 0388ms total)
T405C 000:723 JLINK_WriteReg(R7, 0x00000000)  returns 0x00 (0000ms, 0388ms total)
T405C 000:723 JLINK_WriteReg(R8, 0x00000000)  returns 0x00 (0000ms, 0388ms total)
T405C 000:723 JLINK_WriteReg(R9, 0x200005B4)  returns 0x00 (0000ms, 0388ms total)
T405C 000:723 JLINK_WriteReg(R10, 0x00000000)  returns 0x00 (0000ms, 0388ms total)
T405C 000:723 JLINK_WriteReg(R11, 0x00000000)  returns 0x00 (0000ms, 0388ms total)
T405C 000:723 JLINK_WriteReg(R12, 0x00000000)  returns 0x00 (0000ms, 0388ms total)
T405C 000:723 JLINK_WriteReg(R13 (SP), 0x20002000)  returns 0x00 (0000ms, 0388ms total)
T405C 000:723 JLINK_WriteReg(R14, 0x20000001)  returns 0x00 (0000ms, 0388ms total)
T405C 000:723 JLINK_WriteReg(R15 (PC), 0x200000D4)  returns 0x00 (0000ms, 0388ms total)
T405C 000:723 JLINK_WriteReg(XPSR, 0x01000000)  returns 0x00 (0000ms, 0388ms total)
T405C 000:723 JLINK_WriteReg(MSP, 0x20002000)  returns 0x00 (0000ms, 0388ms total)
T405C 000:723 JLINK_WriteReg(PSP, 0x20002000)  returns 0x00 (0000ms, 0388ms total)
T405C 000:723 JLINK_WriteReg(CFBP, 0x00000000)  returns 0x00 (0000ms, 0388ms total)
T405C 000:723 JLINK_SetBPEx(Addr = 0x20000000, Type = 0xFFFFFFF2)  returns 0x0000000B (0000ms, 0388ms total)
T405C 000:723 JLINK_Go() -- CPU_ReadMem(4 bytes @ 0xE0001000) (0006ms, 0394ms total)
T405C 000:730 JLINK_IsHalted()  returns FALSE (0002ms, 0396ms total)
T405C 000:734 JLINK_IsHalted() -- CPU_ReadMem(2 bytes @ 0x20000000)  returns TRUE (0013ms, 0407ms total)
T405C 000:747 JLINK_ReadReg(R15 (PC))  returns 0x20000000 (0000ms, 0394ms total)
T405C 000:747 JLINK_ClrBPEx(BPHandle = 0x0000000B)  returns 0x00 (0000ms, 0394ms total)
T405C 000:747 JLINK_ReadReg(R0)  returns 0x00000000 (0000ms, 0394ms total)
T405C 000:748 JLINK_WriteReg(R0, 0x0002B000)  returns 0x00 (0000ms, 0394ms total)
T405C 000:748 JLINK_WriteReg(R1, 0x00001000)  returns 0x00 (0000ms, 0394ms total)
T405C 000:748 JLINK_WriteReg(R2, 0x000000FF)  returns 0x00 (0000ms, 0394ms total)
T405C 000:748 JLINK_WriteReg(R3, 0x00000000)  returns 0x00 (0000ms, 0394ms total)
T405C 000:748 JLINK_WriteReg(R4, 0x00000000)  returns 0x00 (0000ms, 0394ms total)
T405C 000:748 JLINK_WriteReg(R5, 0x00000000)  returns 0x00 (0000ms, 0394ms total)
T405C 000:748 JLINK_WriteReg(R6, 0x00000000)  returns 0x00 (0000ms, 0394ms total)
T405C 000:748 JLINK_WriteReg(R7, 0x00000000)  returns 0x00 (0001ms, 0395ms total)
T405C 000:749 JLINK_WriteReg(R8, 0x00000000)  returns 0x00 (0000ms, 0395ms total)
T405C 000:749 JLINK_WriteReg(R9, 0x200005B4)  returns 0x00 (0000ms, 0395ms total)
T405C 000:749 JLINK_WriteReg(R10, 0x00000000)  returns 0x00 (0000ms, 0395ms total)
T405C 000:749 JLINK_WriteReg(R11, 0x00000000)  returns 0x00 (0000ms, 0395ms total)
T405C 000:749 JLINK_WriteReg(R12, 0x00000000)  returns 0x00 (0000ms, 0395ms total)
T405C 000:749 JLINK_WriteReg(R13 (SP), 0x20002000)  returns 0x00 (0000ms, 0395ms total)
T405C 000:749 JLINK_WriteReg(R14, 0x20000001)  returns 0x00 (0000ms, 0395ms total)
T405C 000:749 JLINK_WriteReg(R15 (PC), 0x20000288)  returns 0x00 (0000ms, 0395ms total)
T405C 000:749 JLINK_WriteReg(XPSR, 0x01000000)  returns 0x00 (0000ms, 0395ms total)
T405C 000:749 JLINK_WriteReg(MSP, 0x20002000)  returns 0x00 (0000ms, 0395ms total)
T405C 000:749 JLINK_WriteReg(PSP, 0x20002000)  returns 0x00 (0000ms, 0395ms total)
T405C 000:749 JLINK_WriteReg(CFBP, 0x00000000)  returns 0x00 (0000ms, 0395ms total)
T405C 000:749 JLINK_SetBPEx(Addr = 0x20000000, Type = 0xFFFFFFF2)  returns 0x0000000C (0000ms, 0395ms total)
T405C 000:749 JLINK_Go() -- CPU_ReadMem(4 bytes @ 0xE0001000) (0006ms, 0401ms total)
T405C 000:755 JLINK_IsHalted() -- CPU_ReadMem(2 bytes @ 0x20000000)  returns TRUE (0013ms, 0414ms total)
T405C 000:768 JLINK_ReadReg(R15 (PC))  returns 0x20000000 (0000ms, 0401ms total)
T405C 000:768 JLINK_ClrBPEx(BPHandle = 0x0000000C)  returns 0x00 (0000ms, 0401ms total)
T405C 000:768 JLINK_ReadReg(R0)  returns 0x00000001 (0000ms, 0401ms total)
T405C 000:768 JLINK_WriteReg(R0, 0x0002B000)  returns 0x00 (0000ms, 0401ms total)
T405C 000:768 JLINK_WriteReg(R1, 0x00001000)  returns 0x00 (0000ms, 0401ms total)
T405C 000:768 JLINK_WriteReg(R2, 0x000000FF)  returns 0x00 (0000ms, 0401ms total)
T405C 000:768 JLINK_WriteReg(R3, 0x00000000)  returns 0x00 (0000ms, 0401ms total)
T405C 000:768 JLINK_WriteReg(R4, 0x00000000)  returns 0x00 (0000ms, 0401ms total)
T405C 000:768 JLINK_WriteReg(R5, 0x00000000)  returns 0x00 (0000ms, 0401ms total)
T405C 000:768 JLINK_WriteReg(R6, 0x00000000)  returns 0x00 (0000ms, 0401ms total)
T405C 000:768 JLINK_WriteReg(R7, 0x00000000)  returns 0x00 (0000ms, 0401ms total)
T405C 000:768 JLINK_WriteReg(R8, 0x00000000)  returns 0x00 (0000ms, 0401ms total)
T405C 000:768 JLINK_WriteReg(R9, 0x200005B4)  returns 0x00 (0000ms, 0401ms total)
T405C 000:768 JLINK_WriteReg(R10, 0x00000000)  returns 0x00 (0000ms, 0401ms total)
T405C 000:768 JLINK_WriteReg(R11, 0x00000000)  returns 0x00 (0000ms, 0401ms total)
T405C 000:768 JLINK_WriteReg(R12, 0x00000000)  returns 0x00 (0000ms, 0401ms total)
T405C 000:768 JLINK_WriteReg(R13 (SP), 0x20002000)  returns 0x00 (0000ms, 0401ms total)
T405C 000:768 JLINK_WriteReg(R14, 0x20000001)  returns 0x00 (0000ms, 0401ms total)
T405C 000:768 JLINK_WriteReg(R15 (PC), 0x200000D4)  returns 0x00 (0000ms, 0401ms total)
T405C 000:768 JLINK_WriteReg(XPSR, 0x01000000)  returns 0x00 (0001ms, 0402ms total)
T405C 000:769 JLINK_WriteReg(MSP, 0x20002000)  returns 0x00 (0000ms, 0402ms total)
T405C 000:769 JLINK_WriteReg(PSP, 0x20002000)  returns 0x00 (0000ms, 0402ms total)
T405C 000:769 JLINK_WriteReg(CFBP, 0x00000000)  returns 0x00 (0000ms, 0402ms total)
T405C 000:769 JLINK_SetBPEx(Addr = 0x20000000, Type = 0xFFFFFFF2)  returns 0x0000000D (0000ms, 0402ms total)
T405C 000:769 JLINK_Go() -- CPU_ReadMem(4 bytes @ 0xE0001000) (0006ms, 0408ms total)
T405C 000:775 JLINK_IsHalted()  returns FALSE (0001ms, 0409ms total)
T405C 000:780 JLINK_IsHalted() -- CPU_ReadMem(2 bytes @ 0x20000000)  returns TRUE (0012ms, 0420ms total)
T405C 000:792 JLINK_ReadReg(R15 (PC))  returns 0x20000000 (0000ms, 0408ms total)
T405C 000:792 JLINK_ClrBPEx(BPHandle = 0x0000000D)  returns 0x00 (0000ms, 0408ms total)
T405C 000:792 JLINK_ReadReg(R0)  returns 0x00000000 (0000ms, 0408ms total)
T405C 000:793 JLINK_WriteReg(R0, 0x0002C000)  returns 0x00 (0000ms, 0408ms total)
T405C 000:793 JLINK_WriteReg(R1, 0x00001000)  returns 0x00 (0000ms, 0408ms total)
T405C 000:793 JLINK_WriteReg(R2, 0x000000FF)  returns 0x00 (0000ms, 0408ms total)
T405C 000:793 JLINK_WriteReg(R3, 0x00000000)  returns 0x00 (0000ms, 0408ms total)
T405C 000:793 JLINK_WriteReg(R4, 0x00000000)  returns 0x00 (0000ms, 0408ms total)
T405C 000:793 JLINK_WriteReg(R5, 0x00000000)  returns 0x00 (0000ms, 0408ms total)
T405C 000:793 JLINK_WriteReg(R6, 0x00000000)  returns 0x00 (0000ms, 0408ms total)
T405C 000:793 JLINK_WriteReg(R7, 0x00000000)  returns 0x00 (0000ms, 0408ms total)
T405C 000:793 JLINK_WriteReg(R8, 0x00000000)  returns 0x00 (0000ms, 0408ms total)
T405C 000:793 JLINK_WriteReg(R9, 0x200005B4)  returns 0x00 (0000ms, 0408ms total)
T405C 000:793 JLINK_WriteReg(R10, 0x00000000)  returns 0x00 (0000ms, 0408ms total)
T405C 000:793 JLINK_WriteReg(R11, 0x00000000)  returns 0x00 (0000ms, 0408ms total)
T405C 000:793 JLINK_WriteReg(R12, 0x00000000)  returns 0x00 (0000ms, 0408ms total)
T405C 000:793 JLINK_WriteReg(R13 (SP), 0x20002000)  returns 0x00 (0000ms, 0408ms total)
T405C 000:793 JLINK_WriteReg(R14, 0x20000001)  returns 0x00 (0000ms, 0408ms total)
T405C 000:793 JLINK_WriteReg(R15 (PC), 0x20000288)  returns 0x00 (0000ms, 0408ms total)
T405C 000:793 JLINK_WriteReg(XPSR, 0x01000000)  returns 0x00 (0000ms, 0408ms total)
T405C 000:793 JLINK_WriteReg(MSP, 0x20002000)  returns 0x00 (0000ms, 0408ms total)
T405C 000:793 JLINK_WriteReg(PSP, 0x20002000)  returns 0x00 (0000ms, 0408ms total)
T405C 000:793 JLINK_WriteReg(CFBP, 0x00000000)  returns 0x00 (0000ms, 0408ms total)
T405C 000:793 JLINK_SetBPEx(Addr = 0x20000000, Type = 0xFFFFFFF2)  returns 0x0000000E (0000ms, 0408ms total)
T405C 000:793 JLINK_Go() -- CPU_ReadMem(4 bytes @ 0xE0001000) (0007ms, 0415ms total)
T405C 000:800 JLINK_IsHalted() -- CPU_ReadMem(2 bytes @ 0x20000000)  returns TRUE (0013ms, 0428ms total)
T405C 000:813 JLINK_ReadReg(R15 (PC))  returns 0x20000000 (0000ms, 0415ms total)
T405C 000:813 JLINK_ClrBPEx(BPHandle = 0x0000000E)  returns 0x00 (0000ms, 0415ms total)
T405C 000:813 JLINK_ReadReg(R0)  returns 0x00000001 (0000ms, 0415ms total)
T405C 000:813 JLINK_WriteReg(R0, 0x0002C000)  returns 0x00 (0000ms, 0415ms total)
T405C 000:813 JLINK_WriteReg(R1, 0x00001000)  returns 0x00 (0000ms, 0415ms total)
T405C 000:813 JLINK_WriteReg(R2, 0x000000FF)  returns 0x00 (0000ms, 0415ms total)
T405C 000:813 JLINK_WriteReg(R3, 0x00000000)  returns 0x00 (0000ms, 0415ms total)
T405C 000:813 JLINK_WriteReg(R4, 0x00000000)  returns 0x00 (0000ms, 0415ms total)
T405C 000:813 JLINK_WriteReg(R5, 0x00000000)  returns 0x00 (0000ms, 0415ms total)
T405C 000:813 JLINK_WriteReg(R6, 0x00000000)  returns 0x00 (0000ms, 0415ms total)
T405C 000:813 JLINK_WriteReg(R7, 0x00000000)  returns 0x00 (0000ms, 0415ms total)
T405C 000:813 JLINK_WriteReg(R8, 0x00000000)  returns 0x00 (0000ms, 0415ms total)
T405C 000:813 JLINK_WriteReg(R9, 0x200005B4)  returns 0x00 (0000ms, 0415ms total)
T405C 000:813 JLINK_WriteReg(R10, 0x00000000)  returns 0x00 (0000ms, 0415ms total)
T405C 000:813 JLINK_WriteReg(R11, 0x00000000)  returns 0x00 (0000ms, 0415ms total)
T405C 000:813 JLINK_WriteReg(R12, 0x00000000)  returns 0x00 (0000ms, 0415ms total)
T405C 000:813 JLINK_WriteReg(R13 (SP), 0x20002000)  returns 0x00 (0000ms, 0415ms total)
T405C 000:813 JLINK_WriteReg(R14, 0x20000001)  returns 0x00 (0000ms, 0415ms total)
T405C 000:813 JLINK_WriteReg(R15 (PC), 0x200000D4)  returns 0x00 (0000ms, 0415ms total)
T405C 000:813 JLINK_WriteReg(XPSR, 0x01000000)  returns 0x00 (0000ms, 0415ms total)
T405C 000:813 JLINK_WriteReg(MSP, 0x20002000)  returns 0x00 (0000ms, 0415ms total)
T405C 000:813 JLINK_WriteReg(PSP, 0x20002000)  returns 0x00 (0000ms, 0415ms total)
T405C 000:813 JLINK_WriteReg(CFBP, 0x00000000)  returns 0x00 (0000ms, 0415ms total)
T405C 000:814 JLINK_SetBPEx(Addr = 0x20000000, Type = 0xFFFFFFF2)  returns 0x0000000F (0000ms, 0415ms total)
T405C 000:814 JLINK_Go() -- CPU_ReadMem(4 bytes @ 0xE0001000) (0006ms, 0421ms total)
T405C 000:820 JLINK_IsHalted()  returns FALSE (0001ms, 0422ms total)
T405C 000:825 JLINK_IsHalted() -- CPU_ReadMem(2 bytes @ 0x20000000)  returns TRUE (0012ms, 0433ms total)
T405C 000:837 JLINK_ReadReg(R15 (PC))  returns 0x20000000 (0000ms, 0421ms total)
T405C 000:837 JLINK_ClrBPEx(BPHandle = 0x0000000F)  returns 0x00 (0000ms, 0421ms total)
T405C 000:837 JLINK_ReadReg(R0)  returns 0x00000000 (0000ms, 0421ms total)
T405C 000:838 JLINK_WriteReg(R0, 0x0002D000)  returns 0x00 (0000ms, 0421ms total)
T405C 000:838 JLINK_WriteReg(R1, 0x00001000)  returns 0x00 (0000ms, 0421ms total)
T405C 000:838 JLINK_WriteReg(R2, 0x000000FF)  returns 0x00 (0000ms, 0421ms total)
T405C 000:838 JLINK_WriteReg(R3, 0x00000000)  returns 0x00 (0000ms, 0421ms total)
T405C 000:838 JLINK_WriteReg(R4, 0x00000000)  returns 0x00 (0000ms, 0421ms total)
T405C 000:838 JLINK_WriteReg(R5, 0x00000000)  returns 0x00 (0000ms, 0421ms total)
T405C 000:838 JLINK_WriteReg(R6, 0x00000000)  returns 0x00 (0000ms, 0421ms total)
T405C 000:838 JLINK_WriteReg(R7, 0x00000000)  returns 0x00 (0000ms, 0421ms total)
T405C 000:838 JLINK_WriteReg(R8, 0x00000000)  returns 0x00 (0000ms, 0421ms total)
T405C 000:838 JLINK_WriteReg(R9, 0x200005B4)  returns 0x00 (0000ms, 0421ms total)
T405C 000:838 JLINK_WriteReg(R10, 0x00000000)  returns 0x00 (0000ms, 0421ms total)
T405C 000:838 JLINK_WriteReg(R11, 0x00000000)  returns 0x00 (0000ms, 0421ms total)
T405C 000:838 JLINK_WriteReg(R12, 0x00000000)  returns 0x00 (0000ms, 0421ms total)
T405C 000:838 JLINK_WriteReg(R13 (SP), 0x20002000)  returns 0x00 (0000ms, 0421ms total)
T405C 000:838 JLINK_WriteReg(R14, 0x20000001)  returns 0x00 (0000ms, 0421ms total)
T405C 000:838 JLINK_WriteReg(R15 (PC), 0x20000288)  returns 0x00 (0000ms, 0421ms total)
T405C 000:838 JLINK_WriteReg(XPSR, 0x01000000)  returns 0x00 (0000ms, 0421ms total)
T405C 000:838 JLINK_WriteReg(MSP, 0x20002000)  returns 0x00 (0000ms, 0421ms total)
T405C 000:838 JLINK_WriteReg(PSP, 0x20002000)  returns 0x00 (0000ms, 0421ms total)
T405C 000:838 JLINK_WriteReg(CFBP, 0x00000000)  returns 0x00 (0000ms, 0421ms total)
T405C 000:838 JLINK_SetBPEx(Addr = 0x20000000, Type = 0xFFFFFFF2)  returns 0x00000010 (0000ms, 0421ms total)
T405C 000:838 JLINK_Go() -- CPU_ReadMem(4 bytes @ 0xE0001000) (0007ms, 0428ms total)
T405C 000:845 JLINK_IsHalted() -- CPU_ReadMem(2 bytes @ 0x20000000)  returns TRUE (0012ms, 0440ms total)
T405C 000:857 JLINK_ReadReg(R15 (PC))  returns 0x20000000 (0000ms, 0428ms total)
T405C 000:857 JLINK_ClrBPEx(BPHandle = 0x00000010)  returns 0x00 (0000ms, 0428ms total)
T405C 000:857 JLINK_ReadReg(R0)  returns 0x00000001 (0000ms, 0428ms total)
T405C 000:857 JLINK_WriteReg(R0, 0x0002D000)  returns 0x00 (0000ms, 0428ms total)
T405C 000:857 JLINK_WriteReg(R1, 0x00001000)  returns 0x00 (0000ms, 0428ms total)
T405C 000:857 JLINK_WriteReg(R2, 0x000000FF)  returns 0x00 (0000ms, 0428ms total)
T405C 000:857 JLINK_WriteReg(R3, 0x00000000)  returns 0x00 (0001ms, 0429ms total)
T405C 000:858 JLINK_WriteReg(R4, 0x00000000)  returns 0x00 (0000ms, 0429ms total)
T405C 000:858 JLINK_WriteReg(R5, 0x00000000)  returns 0x00 (0000ms, 0429ms total)
T405C 000:858 JLINK_WriteReg(R6, 0x00000000)  returns 0x00 (0000ms, 0429ms total)
T405C 000:858 JLINK_WriteReg(R7, 0x00000000)  returns 0x00 (0000ms, 0429ms total)
T405C 000:858 JLINK_WriteReg(R8, 0x00000000)  returns 0x00 (0000ms, 0429ms total)
T405C 000:858 JLINK_WriteReg(R9, 0x200005B4)  returns 0x00 (0000ms, 0429ms total)
T405C 000:858 JLINK_WriteReg(R10, 0x00000000)  returns 0x00 (0000ms, 0429ms total)
T405C 000:858 JLINK_WriteReg(R11, 0x00000000)  returns 0x00 (0000ms, 0429ms total)
T405C 000:858 JLINK_WriteReg(R12, 0x00000000)  returns 0x00 (0000ms, 0429ms total)
T405C 000:858 JLINK_WriteReg(R13 (SP), 0x20002000)  returns 0x00 (0000ms, 0429ms total)
T405C 000:858 JLINK_WriteReg(R14, 0x20000001)  returns 0x00 (0000ms, 0429ms total)
T405C 000:858 JLINK_WriteReg(R15 (PC), 0x200000D4)  returns 0x00 (0000ms, 0429ms total)
T405C 000:858 JLINK_WriteReg(XPSR, 0x01000000)  returns 0x00 (0000ms, 0429ms total)
T405C 000:858 JLINK_WriteReg(MSP, 0x20002000)  returns 0x00 (0000ms, 0429ms total)
T405C 000:858 JLINK_WriteReg(PSP, 0x20002000)  returns 0x00 (0000ms, 0429ms total)
T405C 000:858 JLINK_WriteReg(CFBP, 0x00000000)  returns 0x00 (0000ms, 0429ms total)
T405C 000:858 JLINK_SetBPEx(Addr = 0x20000000, Type = 0xFFFFFFF2)  returns 0x00000011 (0000ms, 0429ms total)
T405C 000:858 JLINK_Go() -- CPU_ReadMem(4 bytes @ 0xE0001000) (0007ms, 0436ms total)
T405C 000:865 JLINK_IsHalted()  returns FALSE (0002ms, 0438ms total)
T405C 000:870 JLINK_IsHalted() -- CPU_ReadMem(2 bytes @ 0x20000000)  returns TRUE (0012ms, 0448ms total)
T405C 000:882 JLINK_ReadReg(R15 (PC))  returns 0x20000000 (0000ms, 0436ms total)
T405C 000:882 JLINK_ClrBPEx(BPHandle = 0x00000011)  returns 0x00 (0000ms, 0436ms total)
T405C 000:882 JLINK_ReadReg(R0)  returns 0x00000000 (0000ms, 0436ms total)
T405C 000:883 JLINK_WriteReg(R0, 0x0002E000)  returns 0x00 (0000ms, 0436ms total)
T405C 000:883 JLINK_WriteReg(R1, 0x00001000)  returns 0x00 (0000ms, 0436ms total)
T405C 000:883 JLINK_WriteReg(R2, 0x000000FF)  returns 0x00 (0000ms, 0436ms total)
T405C 000:883 JLINK_WriteReg(R3, 0x00000000)  returns 0x00 (0000ms, 0436ms total)
T405C 000:883 JLINK_WriteReg(R4, 0x00000000)  returns 0x00 (0000ms, 0436ms total)
T405C 000:883 JLINK_WriteReg(R5, 0x00000000)  returns 0x00 (0000ms, 0436ms total)
T405C 000:883 JLINK_WriteReg(R6, 0x00000000)  returns 0x00 (0000ms, 0436ms total)
T405C 000:883 JLINK_WriteReg(R7, 0x00000000)  returns 0x00 (0000ms, 0436ms total)
T405C 000:883 JLINK_WriteReg(R8, 0x00000000)  returns 0x00 (0000ms, 0436ms total)
T405C 000:883 JLINK_WriteReg(R9, 0x200005B4)  returns 0x00 (0000ms, 0436ms total)
T405C 000:883 JLINK_WriteReg(R10, 0x00000000)  returns 0x00 (0000ms, 0436ms total)
T405C 000:883 JLINK_WriteReg(R11, 0x00000000)  returns 0x00 (0000ms, 0436ms total)
T405C 000:883 JLINK_WriteReg(R12, 0x00000000)  returns 0x00 (0000ms, 0436ms total)
T405C 000:883 JLINK_WriteReg(R13 (SP), 0x20002000)  returns 0x00 (0000ms, 0436ms total)
T405C 000:883 JLINK_WriteReg(R14, 0x20000001)  returns 0x00 (0000ms, 0436ms total)
T405C 000:883 JLINK_WriteReg(R15 (PC), 0x20000288)  returns 0x00 (0000ms, 0436ms total)
T405C 000:883 JLINK_WriteReg(XPSR, 0x01000000)  returns 0x00 (0000ms, 0436ms total)
T405C 000:883 JLINK_WriteReg(MSP, 0x20002000)  returns 0x00 (0000ms, 0436ms total)
T405C 000:883 JLINK_WriteReg(PSP, 0x20002000)  returns 0x00 (0000ms, 0436ms total)
T405C 000:883 JLINK_WriteReg(CFBP, 0x00000000)  returns 0x00 (0000ms, 0436ms total)
T405C 000:883 JLINK_SetBPEx(Addr = 0x20000000, Type = 0xFFFFFFF2)  returns 0x00000012 (0000ms, 0436ms total)
T405C 000:883 JLINK_Go() -- CPU_ReadMem(4 bytes @ 0xE0001000) (0007ms, 0443ms total)
T405C 000:890 JLINK_IsHalted() -- CPU_ReadMem(2 bytes @ 0x20000000)  returns TRUE (0013ms, 0456ms total)
T405C 000:903 JLINK_ReadReg(R15 (PC))  returns 0x20000000 (0000ms, 0443ms total)
T405C 000:903 JLINK_ClrBPEx(BPHandle = 0x00000012)  returns 0x00 (0000ms, 0443ms total)
T405C 000:903 JLINK_ReadReg(R0)  returns 0x00000001 (0000ms, 0443ms total)
T405C 000:903 JLINK_WriteReg(R0, 0x0002E000)  returns 0x00 (0000ms, 0443ms total)
T405C 000:903 JLINK_WriteReg(R1, 0x00001000)  returns 0x00 (0000ms, 0443ms total)
T405C 000:903 JLINK_WriteReg(R2, 0x000000FF)  returns 0x00 (0000ms, 0443ms total)
T405C 000:903 JLINK_WriteReg(R3, 0x00000000)  returns 0x00 (0000ms, 0443ms total)
T405C 000:903 JLINK_WriteReg(R4, 0x00000000)  returns 0x00 (0000ms, 0443ms total)
T405C 000:903 JLINK_WriteReg(R5, 0x00000000)  returns 0x00 (0000ms, 0443ms total)
T405C 000:903 JLINK_WriteReg(R6, 0x00000000)  returns 0x00 (0000ms, 0443ms total)
T405C 000:903 JLINK_WriteReg(R7, 0x00000000)  returns 0x00 (0000ms, 0443ms total)
T405C 000:903 JLINK_WriteReg(R8, 0x00000000)  returns 0x00 (0000ms, 0443ms total)
T405C 000:903 JLINK_WriteReg(R9, 0x200005B4)  returns 0x00 (0000ms, 0443ms total)
T405C 000:903 JLINK_WriteReg(R10, 0x00000000)  returns 0x00 (0000ms, 0443ms total)
T405C 000:903 JLINK_WriteReg(R11, 0x00000000)  returns 0x00 (0000ms, 0443ms total)
T405C 000:903 JLINK_WriteReg(R12, 0x00000000)  returns 0x00 (0000ms, 0443ms total)
T405C 000:903 JLINK_WriteReg(R13 (SP), 0x20002000)  returns 0x00 (0000ms, 0443ms total)
